
T472C 000:049 SEGGER J-Link V6.47c (beta) Log File (0001ms, 0037ms total)
T472C 000:049 DLL Compiled: Jun 14 2019 19:47:07 (0001ms, 0037ms total)
T472C 000:049 Logging started @ 2019-12-12 15:26 (0001ms, 0037ms total)
T472C 000:050 JLINK_SetWarnOutHandler(...) (0000ms, 0037ms total)
T472C 000:050 JLINK_OpenEx(...)
Firmware: J-Link ARM V8 compiled Nov 28 2014 13:44:46
Hardware: V8.00
S/N: 788594195
Feature(s): RDI,FlashDL,FlashBP,JFlash,GDB
TELNET listener socket opened on port 19021WEBSRV 
Starting webserver (0028ms, 0065ms total)
T472C 000:050 WEBSRV Webserver running on local port 19080 (0028ms, 0065ms total)
T472C 000:050   returns O.K. (0028ms, 0065ms total)
T472C 000:078 JLINK_SetErrorOutHandler(...) (0000ms, 0065ms total)
T472C 000:078 JLINK_ExecCommand("ProjectFile = "D:\1-Project\02-Platform\NXP\MKE16Z32VLD4\NxpMKE16\Application\IDE\MDK\JLinkSettings.ini"", ...). Ref file found at: E:\WindowApp\Keil_v5\ARM\Segger\JLinkDevices.ref (0003ms, 0068ms total)
T472C 000:078 XML referenced by ref file: E:\WindowApp\SEGGER\JLink_V647c\JLinkDevices.xml (0004ms, 0069ms total)
T472C 000:078 E:\WindowApp\SEGGER\JLink_V647c\JLinkDevices.xml evaluated successfully.  returns 0x00 (0046ms, 0111ms total)
T472C 000:125 JLINK_ExecCommand("Device = MKE16Z32VLD4", ...). Device "MKE16Z32XXX4" selected.  returns 0x00 (0004ms, 0115ms total)
T472C 000:129 JLINK_ExecCommand("DisableConnectionTimeout", ...).   returns 0x01 (0000ms, 0115ms total)
T472C 000:129 JLINK_GetHardwareVersion()  returns 0x13880 (0000ms, 0115ms total)
T472C 000:129 JLINK_GetDLLVersion()  returns 64703 (0000ms, 0115ms total)
T472C 000:129 JLINK_GetFirmwareString(...) (0000ms, 0115ms total)
T472C 000:133 JLINK_GetDLLVersion()  returns 64703 (0000ms, 0115ms total)
T472C 000:133 JLINK_GetCompileDateTime() (0000ms, 0115ms total)
T472C 000:135 JLINK_GetFirmwareString(...) (0000ms, 0115ms total)
T472C 000:138 JLINK_GetHardwareVersion()  returns 0x13880 (0000ms, 0115ms total)
T472C 000:145 JLINK_TIF_Select(JLINKARM_TIF_SWD)  returns 0x00 (0006ms, 0121ms total)
T472C 000:151 JLINK_SetSpeed(5000) (0000ms, 0121ms total)
T472C 000:151 JLINK_GetId() >0x10B TIF> >0x0D TIF> >0x28 TIF> >0x0D TIF> >0x28 TIF> >0x0D TIF> >0x28 TIF> >0x0D TIF> >0x28 TIF> >0x0D TIF> >0x21 TIF> >0x0D TIF> >0x28 TIF> >0x0D TIF> >0x21 TIF> >0x0D TIF> >0x21 TIF> >0x0D TIF> >0x21 TIF> >0x0D TIF> >0x21 TIF> >0x0D TIF> >0x21 TIF> >0x0D TIF> >0x21 TIF> >0x0D TIF> >0x21 TIF> >0x0D TIF> >0x21 TIF> >0x0D TIF> >0x21 TIF> >0x0D TIF> >0x21 TIF> >0x0D TIF> >0x21 TIF> >0x0D TIF> >0x21 TIF> >0x0D TIF> >0x21 TIF> >0x0D TIF> >0x21 TIF> >0x0D TIF> >0x21 TIF>
 >0x0D TIF> >0x21 TIF> >0x0D TIF> >0x21 TIF> >0x0D TIF> >0x21 TIF> >0x0D TIF> >0x21 TIF> >0x0D TIF> >0x21 TIF> >0x0D TIF> >0x21 TIF> >0x0D TIF> >0x21 TIF> >0x0D TIF> >0x21 TIF> >0x0D TIF> >0x21 TIF> >0x0D TIF> >0x21 TIF> >0x0D TIF> >0x21 TIF> >0x0D TIF> >0x21 TIF> >0x0D TIF> >0x21 TIF> >0x0D TIF> >0x21 TIF> >0x0D TIF> >0x21 TIF> >0x0D TIF> >0x21 TIF> >0x0D TIF> >0x21 TIF> >0x0D TIF> >0x21 TIF> >0x0D TIF> >0x21 TIF> >0x0D TIF> >0x21 TIF> >0x0D TIF> >0x21 TIF> >0x0D TIF> >0x21 TIF> >0x0D TIF> >0x21 TIF>
 >0x0D TIF> >0x21 TIF> >0x0D TIF> >0x21 TIF> >0x0D TIF> >0x28 TIF> >0x0D TIF> >0x28 TIF> >0x0D TIF> >0x28 TIF> >0x0D TIF> >0x21 TIF> >0x0D TIF> >0x21 TIF> >0x0D TIF> >0x28 TIF> >0x10B TIF>Found SW-DP with ID 0x0BC11477 >0x0D TIF> >0x28 TIF> >0x0D TIF> >0x28 TIF> >0x0D TIF> >0x28 TIF> >0x0D TIF> >0x28 TIF> >0x0D TIF> >0x21 TIF> >0x0D TIF> >0x28 TIF>Scanning AP map to find all available APs >0x0D TIF> >0x28 TIF> >0x0D TIF> >0x21 TIF> >0x0D TIF> >0x21 TIF> >0x0D TIF> >0x28 TIF> >0x0D TIF> >0x21 TIF>
 >0x0D TIF> >0x21 TIF> >0x0D TIF> >0x28 TIF> >0x0D TIF> >0x21 TIF> >0x0D TIF> >0x21 TIF>AP[2]: Stopped AP scan as end of AP map has been reachedAP[0]: AHB-AP (IDR: 0x04770031)AP[1]: JTAG-AP (IDR: 0x001C0020)Iterating through AP map to find AHB-AP to use >0x42 TIF> >0x28 TIF> >0x0D TIF> >0x28 TIF> >0x0D TIF> >0x21 TIF> >0x0D TIF> >0x21 TIF> >0x42 TIF> >0x28 TIF> >0x0D TIF> >0x28 TIF> >0x0D TIF> >0x28 TIF> >0x0D TIF> >0x21 TIF> >0x0D TIF> >0x21 TIF>AP[0]: Core foundAP[0]: AHB-AP ROM base: 0xF0002000
 >0x0D TIF> >0x28 TIF> >0x0D TIF> >0x28 TIF> >0x0D TIF> >0x28 TIF> >0x0D TIF> >0x21 TIF> >0x0D TIF> >0x21 TIF>CPUID register: 0x410CC601. Implementer code: 0x41 (ARM)Found Cortex-M0 r0p1, Little endian. -- Max. mem block: 0x00002408 -- CPU_ReadMem(4 bytes @ 0xE000EDF0) -- CPU_WriteMem(4 bytes @ 0xE000EDF0) -- CPU_ReadMem(4 bytes @ 0xE0002000)FPUnit: 2 code (BP) slots and 0 literal slots -- CPU_ReadMem(4 bytes @ 0xE000EDFC) -- CPU_WriteMem(4 bytes @ 0xE000EDFC) -- CPU_ReadMem(4 bytes @ 0xE0001000)
 -- CPU_WriteMem(4 bytes @ 0xE0001000)CoreSight components:ROMTbl[0] @ F0002000 -- CPU_ReadMem(16 bytes @ 0xF0002000) -- CPU_ReadMem(16 bytes @ 0xF0000FF0) -- CPU_ReadMem(16 bytes @ 0xF0000FE0)ROMTbl[0][0]: F0000000, CID: B105900D, PID: 001BB932 MTB-M0+ -- CPU_ReadMem(16 bytes @ 0xF0001FF0) -- CPU_ReadMem(16 bytes @ 0xF0001FE0)ROMTbl[0][1]: F0001000, CID: B105900D, PID: 0008E000 MTBDWT -- CPU_ReadMem(16 bytes @ 0xE00FFFF0) -- CPU_ReadMem(16 bytes @ 0xE00FFFE0)
ROMTbl[0][2]: E00FF000, CID: B105100D, PID: 000BB4C0 ROM TableROMTbl[1] @ E00FF000 -- CPU_ReadMem(16 bytes @ 0xE00FF000) -- CPU_ReadMem(16 bytes @ 0xE000EFF0) -- CPU_ReadMem(16 bytes @ 0xE000EFE0)ROMTbl[1][0]: E000E000, CID: B105E00D, PID: 000BB008 SCS -- CPU_ReadMem(16 bytes @ 0xE0001FF0) -- CPU_ReadMem(16 bytes @ 0xE0001FE0)ROMTbl[1][1]: E0001000, CID: B105E00D, PID: 000BB00A DWT -- CPU_ReadMem(16 bytes @ 0xE0002FF0) -- CPU_ReadMem(16 bytes @ 0xE0002FE0)
ROMTbl[1][2]: E0002000, CID: B105E00D, PID: 000BB00B FPB >0x0D TIF> >0x21 TIF>  returns 0x0BC11477 (0315ms, 0436ms total)
T472C 000:467 JLINK_GetDLLVersion()  returns 64703 (0000ms, 0436ms total)
T472C 000:467 JLINK_CORE_GetFound()  returns 0x60000FF (0000ms, 0436ms total)
T472C 000:467 JLINK_GetDebugInfo(0x100 = JLINKARM_ROM_TABLE_ADDR_INDEX) -- Value=0xF0002000  returns 0x00 (0000ms, 0436ms total)
T472C 000:470 JLINK_GetDebugInfo(0x100 = JLINKARM_ROM_TABLE_ADDR_INDEX) -- Value=0xF0002000  returns 0x00 (0000ms, 0436ms total)
T472C 000:470 JLINK_GetDebugInfo(0x101 = JLINKARM_DEBUG_INFO_ETM_ADDR_INDEX) -- Value=0x00000000  returns 0x00 (0000ms, 0436ms total)
T472C 000:470 JLINK_ReadMem (0xE0041FF0, 0x0010 Bytes, ...) -- CPU_ReadMem(16 bytes @ 0xE0041FF0) - Data: 00 00 00 00 00 00 00 00 00 00 00 00 00 00 00 00  returns 0x00 (0001ms, 0437ms total)
T472C 000:471 JLINK_GetDebugInfo(0x102 = JLINKARM_DEBUG_INFO_MTB_ADDR_INDEX) -- Value=0xF0000000  returns 0x00 (0000ms, 0437ms total)
T472C 000:471 JLINK_CORE_GetFound()  returns 0x60000FF (0000ms, 0437ms total)
T472C 000:471 JLINK_GetDebugInfo(0x103 = JLINKARM_DEBUG_INFO_TPIU_ADDR_INDEX) -- Value=0x00000000  returns 0x00 (0000ms, 0437ms total)
T472C 000:471 JLINK_ReadMem (0xE0040FF0, 0x0010 Bytes, ...) -- CPU_ReadMem(16 bytes @ 0xE0040FF0) - Data: 00 00 00 00 00 00 00 00 00 00 00 00 00 00 00 00  returns 0x00 (0001ms, 0438ms total)
T472C 000:472 JLINK_GetDebugInfo(0x104 = JLINKARM_DEBUG_INFO_ITM_ADDR_INDEX) -- Value=0xE0000000  returns 0x00 (0000ms, 0438ms total)
T472C 000:472 JLINK_GetDebugInfo(0x105 = JLINKARM_DEBUG_INFO_DWT_ADDR_INDEX) -- Value=0xE0001000  returns 0x00 (0000ms, 0438ms total)
T472C 000:472 JLINK_GetDebugInfo(0x106 = JLINKARM_DEBUG_INFO_FPB_ADDR_INDEX) -- Value=0xE0002000  returns 0x00 (0000ms, 0438ms total)
T472C 000:472 JLINK_GetDebugInfo(0x107 = JLINKARM_DEBUG_INFO_NVIC_ADDR_INDEX) -- Value=0xE000E000  returns 0x00 (0000ms, 0438ms total)
T472C 000:472 JLINK_GetDebugInfo(0x10C = JLINKARM_DEBUG_INFO_DBG_ADDR_INDEX) -- Value=0xE000EDF0  returns 0x00 (0000ms, 0438ms total)
T472C 000:472 JLINK_ReadMemU32(0xE000ED00, 0x0001 Items, ...) -- CPU_ReadMem(4 bytes @ 0xE000ED00) - Data: 01 C6 0C 41  returns 1 (0001ms, 0439ms total)
T472C 000:473 JLINK_SetResetType(JLINKARM_CM3_RESET_TYPE_NORMAL)  returns JLINKARM_CM3_RESET_TYPE_NORMAL (0000ms, 0439ms total)
T472C 000:473 JLINK_Reset() -- CPU is running -- CPU_WriteMem(4 bytes @ 0xE000EDF0) -- CPU is running -- CPU_WriteMem(4 bytes @ 0xE000EDFC)Reset: Halt core after reset via DEMCR.VC_CORERESET. >0x35 TIF>Reset: Reset device via AIRCR.SYSRESETREQ. -- CPU is running -- CPU_WriteMem(4 bytes @ 0xE000ED0C) >0x0D TIF> >0x28 TIF> -- CPU_ReadMem(4 bytes @ 0xE000EDF0) -- CPU_ReadMem(4 bytes @ 0xE000EDF0) -- CPU is running -- CPU_WriteMem(4 bytes @ 0xE000EDF0) -- CPU is running -- CPU_WriteMem(4 bytes @ 0xE000EDFC)
 -- CPU_ReadMem(4 bytes @ 0xE000EDF0) -- CPU_WriteMem(4 bytes @ 0xE0002000) -- CPU_ReadMem(4 bytes @ 0xE000EDFC) -- CPU_ReadMem(4 bytes @ 0xE0001000) -- CPU_WriteMem(4 bytes @ 0xE0001000) (0086ms, 0525ms total)
T472C 000:559 JLINK_Halt()  returns 0x00 (0000ms, 0525ms total)
T472C 000:559 JLINK_IsHalted()  returns TRUE (0000ms, 0525ms total)
T472C 000:559 JLINK_ReadMemU32(0xE000EDF0, 0x0001 Items, ...) -- CPU_ReadMem(4 bytes @ 0xE000EDF0) - Data: 03 00 03 01  returns 1 (0001ms, 0526ms total)
T472C 000:560 JLINK_WriteU32(0xE000EDF0, 0xA05F0003) -- CPU_WriteMem(4 bytes @ 0xE000EDF0)  returns 0 (0002ms, 0528ms total)
T472C 000:562 JLINK_WriteU32(0xE000EDFC, 0x01000000) -- CPU_WriteMem(4 bytes @ 0xE000EDFC)  returns 0 (0000ms, 0528ms total)
T472C 000:573 JLINK_GetHWStatus(...)  returns 0x00 (0000ms, 0528ms total)
T472C 000:581 JLINK_GetNumBPUnits(Type = 0xFFFFFF00)  returns 0x02 (0000ms, 0529ms total)
T472C 000:581 JLINK_GetNumBPUnits(Type = 0xF0)  returns 0x2000 (0000ms, 0529ms total)
T472C 000:581 JLINK_GetNumWPUnits()  returns 0x02 (0000ms, 0529ms total)
T472C 000:590 JLINK_GetSpeed()  returns 0xFA0 (0000ms, 0529ms total)
T472C 000:594 JLINK_ReadMemU32(0xE000E004, 0x0001 Items, ...) -- CPU_ReadMem(4 bytes @ 0xE000E004) - Data: 00 00 00 00  returns 1 (0001ms, 0530ms total)
T472C 000:595 JLINK_Halt()  returns 0x00 (0000ms, 0530ms total)
T472C 000:595 JLINK_IsHalted()  returns TRUE (0000ms, 0530ms total)
T472C 000:599 JLINK_WriteMem(0x20000000, 0x056C Bytes, ...) - Data: 00 BE 0A E0 0D 78 2D 06 68 40 08 24 40 00 00 D3 ... -- CPU_WriteMem(1388 bytes @ 0x20000000)  returns 0x56C (0010ms, 0540ms total)
T472C 000:609 JLINK_WriteReg(R0, 0x00000000)  returns 0x00 (0000ms, 0540ms total)
T472C 000:609 JLINK_WriteReg(R1, 0x00B71B00)  returns 0x00 (0000ms, 0540ms total)
T472C 000:609 JLINK_WriteReg(R2, 0x00000001)  returns 0x00 (0000ms, 0540ms total)
T472C 000:609 JLINK_WriteReg(R3, 0x00000000)  returns 0x00 (0000ms, 0540ms total)
T472C 000:609 JLINK_WriteReg(R4, 0x00000000)  returns 0x00 (0000ms, 0540ms total)
T472C 000:609 JLINK_WriteReg(R5, 0x00000000)  returns 0x00 (0000ms, 0540ms total)
T472C 000:609 JLINK_WriteReg(R6, 0x00000000)  returns 0x00 (0000ms, 0540ms total)
T472C 000:609 JLINK_WriteReg(R7, 0x00000000)  returns 0x00 (0000ms, 0540ms total)
T472C 000:609 JLINK_WriteReg(R8, 0x00000000)  returns 0x00 (0000ms, 0540ms total)
T472C 000:609 JLINK_WriteReg(R9, 0x20000560)  returns 0x00 (0000ms, 0540ms total)
T472C 000:609 JLINK_WriteReg(R10, 0x00000000)  returns 0x00 (0000ms, 0540ms total)
T472C 000:609 JLINK_WriteReg(R11, 0x00000000)  returns 0x00 (0000ms, 0540ms total)
T472C 000:609 JLINK_WriteReg(R12, 0x00000000)  returns 0x00 (0000ms, 0540ms total)
T472C 000:609 JLINK_WriteReg(R13 (SP), 0x20000C00)  returns 0x00 (0000ms, 0540ms total)
T472C 000:609 JLINK_WriteReg(R14, 0x20000001)  returns 0x00 (0000ms, 0540ms total)
T472C 000:609 JLINK_WriteReg(R15 (PC), 0x20000020)  returns 0x00 (0000ms, 0540ms total)
T472C 000:609 JLINK_WriteReg(XPSR, 0x01000000)  returns 0x00 (0000ms, 0540ms total)
T472C 000:609 JLINK_WriteReg(MSP, 0x20000C00)  returns 0x00 (0000ms, 0540ms total)
T472C 000:609 JLINK_WriteReg(PSP, 0x20000C00)  returns 0x00 (0000ms, 0540ms total)
T472C 000:609 JLINK_WriteReg(CFBP, 0x00000000)  returns 0x00 (0000ms, 0540ms total)
T472C 000:609 JLINK_SetBPEx(Addr = 0x20000000, Type = 0xFFFFFFF2) -- CPU_ReadMem(2 bytes @ 0x20000000)  returns 0x00000001 (0002ms, 0542ms total)
T472C 000:611 JLINK_Go() -- CPU_WriteMem(2 bytes @ 0x20000000) -- CPU_ReadMem(4 bytes @ 0xE0001000) -- CPU_WriteMem(4 bytes @ 0xE0001000) -- CPU_WriteMem(4 bytes @ 0xE0002008) -- CPU_WriteMem(4 bytes @ 0xE000200C) -- CPU_WriteMem(4 bytes @ 0xE0001004) (0008ms, 0550ms total)
T472C 000:619 JLINK_IsHalted() -- CPU_ReadMem(2 bytes @ 0x20000000)  returns TRUE (0004ms, 0554ms total)
T472C 000:623 JLINK_ReadReg(R15 (PC))  returns 0x20000000 (0000ms, 0550ms total)
T472C 000:623 JLINK_ClrBPEx(BPHandle = 0x00000001)  returns 0x00 (0000ms, 0550ms total)
T472C 000:623 JLINK_ReadReg(R0)  returns 0x00000000 (0000ms, 0550ms total)
T472C 000:624 JLINK_WriteReg(R0, 0x00003000)  returns 0x00 (0000ms, 0550ms total)
T472C 000:624 JLINK_WriteReg(R1, 0x00000400)  returns 0x00 (0000ms, 0550ms total)
T472C 000:624 JLINK_WriteReg(R2, 0x000000FF)  returns 0x00 (0000ms, 0550ms total)
T472C 000:624 JLINK_WriteReg(R3, 0x00000000)  returns 0x00 (0000ms, 0550ms total)
T472C 000:624 JLINK_WriteReg(R4, 0x00000000)  returns 0x00 (0000ms, 0550ms total)
T472C 000:624 JLINK_WriteReg(R5, 0x00000000)  returns 0x00 (0000ms, 0550ms total)
T472C 000:624 JLINK_WriteReg(R6, 0x00000000)  returns 0x00 (0000ms, 0550ms total)
T472C 000:624 JLINK_WriteReg(R7, 0x00000000)  returns 0x00 (0000ms, 0550ms total)
T472C 000:624 JLINK_WriteReg(R8, 0x00000000)  returns 0x00 (0000ms, 0550ms total)
T472C 000:624 JLINK_WriteReg(R9, 0x20000560)  returns 0x00 (0000ms, 0550ms total)
T472C 000:624 JLINK_WriteReg(R10, 0x00000000)  returns 0x00 (0000ms, 0550ms total)
T472C 000:624 JLINK_WriteReg(R11, 0x00000000)  returns 0x00 (0000ms, 0550ms total)
T472C 000:624 JLINK_WriteReg(R12, 0x00000000)  returns 0x00 (0000ms, 0550ms total)
T472C 000:624 JLINK_WriteReg(R13 (SP), 0x20000C00)  returns 0x00 (0000ms, 0550ms total)
T472C 000:624 JLINK_WriteReg(R14, 0x20000001)  returns 0x00 (0000ms, 0550ms total)
T472C 000:624 JLINK_WriteReg(R15 (PC), 0x20000092)  returns 0x00 (0000ms, 0550ms total)
T472C 000:624 JLINK_WriteReg(XPSR, 0x01000000)  returns 0x00 (0000ms, 0550ms total)
T472C 000:624 JLINK_WriteReg(MSP, 0x20000C00)  returns 0x00 (0000ms, 0550ms total)
T472C 000:624 JLINK_WriteReg(PSP, 0x20000C00)  returns 0x00 (0000ms, 0550ms total)
T472C 000:624 JLINK_WriteReg(CFBP, 0x00000000)  returns 0x00 (0000ms, 0550ms total)
T472C 000:624 JLINK_SetBPEx(Addr = 0x20000000, Type = 0xFFFFFFF2)  returns 0x00000002 (0000ms, 0550ms total)
T472C 000:624 JLINK_Go() -- CPU_ReadMem(4 bytes @ 0xE0001000) -- CPU_WriteMem(4 bytes @ 0xE0001000) (0006ms, 0556ms total)
T472C 000:630 JLINK_IsHalted() -- CPU_ReadMem(2 bytes @ 0x20000000)  returns TRUE (0005ms, 0561ms total)
T472C 000:635 JLINK_ReadReg(R15 (PC))  returns 0x20000000 (0000ms, 0556ms total)
T472C 000:635 JLINK_ClrBPEx(BPHandle = 0x00000002)  returns 0x00 (0000ms, 0556ms total)
T472C 000:635 JLINK_ReadReg(R0)  returns 0x00000001 (0000ms, 0556ms total)
T472C 000:635 JLINK_WriteReg(R0, 0x00003000)  returns 0x00 (0000ms, 0556ms total)
T472C 000:635 JLINK_WriteReg(R1, 0x00000400)  returns 0x00 (0000ms, 0556ms total)
T472C 000:635 JLINK_WriteReg(R2, 0x000000FF)  returns 0x00 (0000ms, 0556ms total)
T472C 000:635 JLINK_WriteReg(R3, 0x00000000)  returns 0x00 (0000ms, 0556ms total)
T472C 000:635 JLINK_WriteReg(R4, 0x00000000)  returns 0x00 (0000ms, 0556ms total)
T472C 000:635 JLINK_WriteReg(R5, 0x00000000)  returns 0x00 (0000ms, 0556ms total)
T472C 000:635 JLINK_WriteReg(R6, 0x00000000)  returns 0x00 (0000ms, 0556ms total)
T472C 000:635 JLINK_WriteReg(R7, 0x00000000)  returns 0x00 (0000ms, 0556ms total)
T472C 000:635 JLINK_WriteReg(R8, 0x00000000)  returns 0x00 (0000ms, 0556ms total)
T472C 000:635 JLINK_WriteReg(R9, 0x20000560)  returns 0x00 (0000ms, 0556ms total)
T472C 000:635 JLINK_WriteReg(R10, 0x00000000)  returns 0x00 (0000ms, 0556ms total)
T472C 000:635 JLINK_WriteReg(R11, 0x00000000)  returns 0x00 (0000ms, 0556ms total)
T472C 000:635 JLINK_WriteReg(R12, 0x00000000)  returns 0x00 (0000ms, 0556ms total)
T472C 000:635 JLINK_WriteReg(R13 (SP), 0x20000C00)  returns 0x00 (0000ms, 0556ms total)
T472C 000:635 JLINK_WriteReg(R14, 0x20000001)  returns 0x00 (0000ms, 0556ms total)
T472C 000:635 JLINK_WriteReg(R15 (PC), 0x200000E8)  returns 0x00 (0000ms, 0556ms total)
T472C 000:635 JLINK_WriteReg(XPSR, 0x01000000)  returns 0x00 (0000ms, 0556ms total)
T472C 000:635 JLINK_WriteReg(MSP, 0x20000C00)  returns 0x00 (0000ms, 0556ms total)
T472C 000:635 JLINK_WriteReg(PSP, 0x20000C00)  returns 0x00 (0000ms, 0556ms total)
T472C 000:635 JLINK_WriteReg(CFBP, 0x00000000)  returns 0x00 (0000ms, 0556ms total)
T472C 000:635 JLINK_SetBPEx(Addr = 0x20000000, Type = 0xFFFFFFF2)  returns 0x00000003 (0000ms, 0556ms total)
T472C 000:635 JLINK_Go() -- CPU_ReadMem(4 bytes @ 0xE0001000) -- CPU_WriteMem(4 bytes @ 0xE0001000) (0006ms, 0562ms total)
T472C 000:641 JLINK_IsHalted()  returns FALSE (0001ms, 0563ms total)
T472C 000:679 JLINK_IsHalted() -- CPU_ReadMem(2 bytes @ 0x20000000)  returns TRUE (0004ms, 0566ms total)
T472C 000:683 JLINK_ReadReg(R15 (PC))  returns 0x20000000 (0000ms, 0562ms total)
T472C 000:683 JLINK_ClrBPEx(BPHandle = 0x00000003)  returns 0x00 (0000ms, 0562ms total)
T472C 000:683 JLINK_ReadReg(R0)  returns 0x00000000 (0000ms, 0562ms total)
T472C 000:683 JLINK_WriteReg(R0, 0x00003400)  returns 0x00 (0000ms, 0562ms total)
T472C 000:683 JLINK_WriteReg(R1, 0x00000400)  returns 0x00 (0000ms, 0562ms total)
T472C 000:683 JLINK_WriteReg(R2, 0x000000FF)  returns 0x00 (0000ms, 0562ms total)
T472C 000:683 JLINK_WriteReg(R3, 0x00000000)  returns 0x00 (0000ms, 0562ms total)
T472C 000:683 JLINK_WriteReg(R4, 0x00000000)  returns 0x00 (0000ms, 0562ms total)
T472C 000:683 JLINK_WriteReg(R5, 0x00000000)  returns 0x00 (0000ms, 0562ms total)
T472C 000:683 JLINK_WriteReg(R6, 0x00000000)  returns 0x00 (0000ms, 0562ms total)
T472C 000:683 JLINK_WriteReg(R7, 0x00000000)  returns 0x00 (0000ms, 0562ms total)
T472C 000:683 JLINK_WriteReg(R8, 0x00000000)  returns 0x00 (0000ms, 0562ms total)
T472C 000:683 JLINK_WriteReg(R9, 0x20000560)  returns 0x00 (0000ms, 0562ms total)
T472C 000:683 JLINK_WriteReg(R10, 0x00000000)  returns 0x00 (0000ms, 0562ms total)
T472C 000:683 JLINK_WriteReg(R11, 0x00000000)  returns 0x00 (0000ms, 0562ms total)
T472C 000:683 JLINK_WriteReg(R12, 0x00000000)  returns 0x00 (0000ms, 0562ms total)
T472C 000:683 JLINK_WriteReg(R13 (SP), 0x20000C00)  returns 0x00 (0000ms, 0562ms total)
T472C 000:683 JLINK_WriteReg(R14, 0x20000001)  returns 0x00 (0000ms, 0562ms total)
T472C 000:683 JLINK_WriteReg(R15 (PC), 0x20000092)  returns 0x00 (0000ms, 0562ms total)
T472C 000:683 JLINK_WriteReg(XPSR, 0x01000000)  returns 0x00 (0000ms, 0562ms total)
T472C 000:683 JLINK_WriteReg(MSP, 0x20000C00)  returns 0x00 (0000ms, 0562ms total)
T472C 000:683 JLINK_WriteReg(PSP, 0x20000C00)  returns 0x00 (0000ms, 0562ms total)
T472C 000:683 JLINK_WriteReg(CFBP, 0x00000000)  returns 0x00 (0000ms, 0562ms total)
T472C 000:683 JLINK_SetBPEx(Addr = 0x20000000, Type = 0xFFFFFFF2)  returns 0x00000004 (0000ms, 0562ms total)
T472C 000:683 JLINK_Go() -- CPU_ReadMem(4 bytes @ 0xE0001000) -- CPU_WriteMem(4 bytes @ 0xE0001000) (0006ms, 0568ms total)
T472C 000:689 JLINK_IsHalted() -- CPU_ReadMem(2 bytes @ 0x20000000)  returns TRUE (0004ms, 0572ms total)
T472C 000:693 JLINK_ReadReg(R15 (PC))  returns 0x20000000 (0000ms, 0568ms total)
T472C 000:693 JLINK_ClrBPEx(BPHandle = 0x00000004)  returns 0x00 (0000ms, 0568ms total)
T472C 000:693 JLINK_ReadReg(R0)  returns 0x00000001 (0000ms, 0568ms total)
T472C 000:693 JLINK_WriteReg(R0, 0x00003400)  returns 0x00 (0000ms, 0568ms total)
T472C 000:693 JLINK_WriteReg(R1, 0x00000400)  returns 0x00 (0000ms, 0568ms total)
T472C 000:693 JLINK_WriteReg(R2, 0x000000FF)  returns 0x00 (0000ms, 0568ms total)
T472C 000:693 JLINK_WriteReg(R3, 0x00000000)  returns 0x00 (0000ms, 0568ms total)
T472C 000:693 JLINK_WriteReg(R4, 0x00000000)  returns 0x00 (0000ms, 0568ms total)
T472C 000:693 JLINK_WriteReg(R5, 0x00000000)  returns 0x00 (0000ms, 0568ms total)
T472C 000:693 JLINK_WriteReg(R6, 0x00000000)  returns 0x00 (0000ms, 0568ms total)
T472C 000:693 JLINK_WriteReg(R7, 0x00000000)  returns 0x00 (0000ms, 0568ms total)
T472C 000:693 JLINK_WriteReg(R8, 0x00000000)  returns 0x00 (0000ms, 0568ms total)
T472C 000:693 JLINK_WriteReg(R9, 0x20000560)  returns 0x00 (0000ms, 0568ms total)
T472C 000:693 JLINK_WriteReg(R10, 0x00000000)  returns 0x00 (0000ms, 0568ms total)
T472C 000:693 JLINK_WriteReg(R11, 0x00000000)  returns 0x00 (0000ms, 0568ms total)
T472C 000:693 JLINK_WriteReg(R12, 0x00000000)  returns 0x00 (0000ms, 0568ms total)
T472C 000:693 JLINK_WriteReg(R13 (SP), 0x20000C00)  returns 0x00 (0000ms, 0568ms total)
T472C 000:693 JLINK_WriteReg(R14, 0x20000001)  returns 0x00 (0000ms, 0568ms total)
T472C 000:693 JLINK_WriteReg(R15 (PC), 0x200000E8)  returns 0x00 (0000ms, 0568ms total)
T472C 000:693 JLINK_WriteReg(XPSR, 0x01000000)  returns 0x00 (0000ms, 0568ms total)
T472C 000:693 JLINK_WriteReg(MSP, 0x20000C00)  returns 0x00 (0000ms, 0568ms total)
T472C 000:693 JLINK_WriteReg(PSP, 0x20000C00)  returns 0x00 (0000ms, 0568ms total)
T472C 000:693 JLINK_WriteReg(CFBP, 0x00000000)  returns 0x00 (0000ms, 0568ms total)
T472C 000:693 JLINK_SetBPEx(Addr = 0x20000000, Type = 0xFFFFFFF2)  returns 0x00000005 (0001ms, 0569ms total)
T472C 000:694 JLINK_Go() -- CPU_ReadMem(4 bytes @ 0xE0001000) -- CPU_WriteMem(4 bytes @ 0xE0001000) (0005ms, 0574ms total)
T472C 000:699 JLINK_IsHalted()  returns FALSE (0001ms, 0575ms total)
T472C 000:703 JLINK_IsHalted()  returns FALSE (0001ms, 0575ms total)
T472C 000:706 JLINK_IsHalted() -- CPU_ReadMem(2 bytes @ 0x20000000)  returns TRUE (0004ms, 0578ms total)
T472C 000:710 JLINK_ReadReg(R15 (PC))  returns 0x20000000 (0000ms, 0574ms total)
T472C 000:710 JLINK_ClrBPEx(BPHandle = 0x00000005)  returns 0x00 (0000ms, 0574ms total)
T472C 000:710 JLINK_ReadReg(R0)  returns 0x00000000 (0000ms, 0574ms total)
T472C 000:710 JLINK_WriteReg(R0, 0x00003800)  returns 0x00 (0000ms, 0574ms total)
T472C 000:710 JLINK_WriteReg(R1, 0x00000400)  returns 0x00 (0000ms, 0574ms total)
T472C 000:710 JLINK_WriteReg(R2, 0x000000FF)  returns 0x00 (0000ms, 0574ms total)
T472C 000:710 JLINK_WriteReg(R3, 0x00000000)  returns 0x00 (0000ms, 0574ms total)
T472C 000:710 JLINK_WriteReg(R4, 0x00000000)  returns 0x00 (0000ms, 0574ms total)
T472C 000:710 JLINK_WriteReg(R5, 0x00000000)  returns 0x00 (0000ms, 0574ms total)
T472C 000:710 JLINK_WriteReg(R6, 0x00000000)  returns 0x00 (0001ms, 0575ms total)
T472C 000:711 JLINK_WriteReg(R7, 0x00000000)  returns 0x00 (0000ms, 0575ms total)
T472C 000:711 JLINK_WriteReg(R8, 0x00000000)  returns 0x00 (0000ms, 0575ms total)
T472C 000:711 JLINK_WriteReg(R9, 0x20000560)  returns 0x00 (0000ms, 0575ms total)
T472C 000:711 JLINK_WriteReg(R10, 0x00000000)  returns 0x00 (0000ms, 0575ms total)
T472C 000:711 JLINK_WriteReg(R11, 0x00000000)  returns 0x00 (0000ms, 0575ms total)
T472C 000:711 JLINK_WriteReg(R12, 0x00000000)  returns 0x00 (0000ms, 0575ms total)
T472C 000:711 JLINK_WriteReg(R13 (SP), 0x20000C00)  returns 0x00 (0000ms, 0575ms total)
T472C 000:711 JLINK_WriteReg(R14, 0x20000001)  returns 0x00 (0000ms, 0575ms total)
T472C 000:711 JLINK_WriteReg(R15 (PC), 0x20000092)  returns 0x00 (0000ms, 0575ms total)
T472C 000:711 JLINK_WriteReg(XPSR, 0x01000000)  returns 0x00 (0000ms, 0575ms total)
T472C 000:711 JLINK_WriteReg(MSP, 0x20000C00)  returns 0x00 (0000ms, 0575ms total)
T472C 000:711 JLINK_WriteReg(PSP, 0x20000C00)  returns 0x00 (0000ms, 0575ms total)
T472C 000:711 JLINK_WriteReg(CFBP, 0x00000000)  returns 0x00 (0000ms, 0575ms total)
T472C 000:711 JLINK_SetBPEx(Addr = 0x20000000, Type = 0xFFFFFFF2)  returns 0x00000006 (0000ms, 0575ms total)
T472C 000:711 JLINK_Go() -- CPU_ReadMem(4 bytes @ 0xE0001000) -- CPU_WriteMem(4 bytes @ 0xE0001000) (0005ms, 0580ms total)
T472C 000:716 JLINK_IsHalted() -- CPU_ReadMem(2 bytes @ 0x20000000)  returns TRUE (0005ms, 0585ms total)
T472C 000:721 JLINK_ReadReg(R15 (PC))  returns 0x20000000 (0000ms, 0580ms total)
T472C 000:721 JLINK_ClrBPEx(BPHandle = 0x00000006)  returns 0x00 (0000ms, 0580ms total)
T472C 000:721 JLINK_ReadReg(R0)  returns 0x00000001 (0000ms, 0580ms total)
T472C 000:721 JLINK_WriteReg(R0, 0x00003800)  returns 0x00 (0000ms, 0580ms total)
T472C 000:721 JLINK_WriteReg(R1, 0x00000400)  returns 0x00 (0000ms, 0580ms total)
T472C 000:721 JLINK_WriteReg(R2, 0x000000FF)  returns 0x00 (0000ms, 0580ms total)
T472C 000:721 JLINK_WriteReg(R3, 0x00000000)  returns 0x00 (0000ms, 0580ms total)
T472C 000:721 JLINK_WriteReg(R4, 0x00000000)  returns 0x00 (0000ms, 0580ms total)
T472C 000:721 JLINK_WriteReg(R5, 0x00000000)  returns 0x00 (0000ms, 0580ms total)
T472C 000:721 JLINK_WriteReg(R6, 0x00000000)  returns 0x00 (0000ms, 0580ms total)
T472C 000:721 JLINK_WriteReg(R7, 0x00000000)  returns 0x00 (0000ms, 0580ms total)
T472C 000:721 JLINK_WriteReg(R8, 0x00000000)  returns 0x00 (0000ms, 0580ms total)
T472C 000:721 JLINK_WriteReg(R9, 0x20000560)  returns 0x00 (0000ms, 0580ms total)
T472C 000:721 JLINK_WriteReg(R10, 0x00000000)  returns 0x00 (0000ms, 0580ms total)
T472C 000:721 JLINK_WriteReg(R11, 0x00000000)  returns 0x00 (0000ms, 0580ms total)
T472C 000:721 JLINK_WriteReg(R12, 0x00000000)  returns 0x00 (0000ms, 0580ms total)
T472C 000:721 JLINK_WriteReg(R13 (SP), 0x20000C00)  returns 0x00 (0000ms, 0580ms total)
T472C 000:721 JLINK_WriteReg(R14, 0x20000001)  returns 0x00 (0000ms, 0580ms total)
T472C 000:721 JLINK_WriteReg(R15 (PC), 0x200000E8)  returns 0x00 (0000ms, 0580ms total)
T472C 000:721 JLINK_WriteReg(XPSR, 0x01000000)  returns 0x00 (0000ms, 0580ms total)
T472C 000:721 JLINK_WriteReg(MSP, 0x20000C00)  returns 0x00 (0000ms, 0580ms total)
T472C 000:721 JLINK_WriteReg(PSP, 0x20000C00)  returns 0x00 (0000ms, 0580ms total)
T472C 000:721 JLINK_WriteReg(CFBP, 0x00000000)  returns 0x00 (0000ms, 0580ms total)
T472C 000:721 JLINK_SetBPEx(Addr = 0x20000000, Type = 0xFFFFFFF2)  returns 0x00000007 (0000ms, 0580ms total)
T472C 000:721 JLINK_Go() -- CPU_ReadMem(4 bytes @ 0xE0001000) -- CPU_WriteMem(4 bytes @ 0xE0001000) (0006ms, 0586ms total)
T472C 000:727 JLINK_IsHalted()  returns FALSE (0001ms, 0587ms total)
T472C 000:730 JLINK_IsHalted()  returns FALSE (0001ms, 0587ms total)
T472C 000:733 JLINK_IsHalted()  returns FALSE (0000ms, 0586ms total)
T472C 000:735 JLINK_IsHalted() -- CPU_ReadMem(2 bytes @ 0x20000000)  returns TRUE (0004ms, 0590ms total)
T472C 000:739 JLINK_ReadReg(R15 (PC))  returns 0x20000000 (0000ms, 0586ms total)
T472C 000:739 JLINK_ClrBPEx(BPHandle = 0x00000007)  returns 0x00 (0000ms, 0586ms total)
T472C 000:739 JLINK_ReadReg(R0)  returns 0x00000000 (0000ms, 0586ms total)
T472C 000:739 JLINK_WriteReg(R0, 0x00003C00)  returns 0x00 (0000ms, 0586ms total)
T472C 000:740 JLINK_WriteReg(R1, 0x00000400)  returns 0x00 (0000ms, 0586ms total)
T472C 000:740 JLINK_WriteReg(R2, 0x000000FF)  returns 0x00 (0000ms, 0586ms total)
T472C 000:740 JLINK_WriteReg(R3, 0x00000000)  returns 0x00 (0000ms, 0586ms total)
T472C 000:740 JLINK_WriteReg(R4, 0x00000000)  returns 0x00 (0000ms, 0586ms total)
T472C 000:740 JLINK_WriteReg(R5, 0x00000000)  returns 0x00 (0000ms, 0586ms total)
T472C 000:740 JLINK_WriteReg(R6, 0x00000000)  returns 0x00 (0000ms, 0586ms total)
T472C 000:740 JLINK_WriteReg(R7, 0x00000000)  returns 0x00 (0000ms, 0586ms total)
T472C 000:740 JLINK_WriteReg(R8, 0x00000000)  returns 0x00 (0000ms, 0586ms total)
T472C 000:740 JLINK_WriteReg(R9, 0x20000560)  returns 0x00 (0000ms, 0586ms total)
T472C 000:740 JLINK_WriteReg(R10, 0x00000000)  returns 0x00 (0000ms, 0586ms total)
T472C 000:740 JLINK_WriteReg(R11, 0x00000000)  returns 0x00 (0000ms, 0586ms total)
T472C 000:740 JLINK_WriteReg(R12, 0x00000000)  returns 0x00 (0000ms, 0586ms total)
T472C 000:740 JLINK_WriteReg(R13 (SP), 0x20000C00)  returns 0x00 (0000ms, 0586ms total)
T472C 000:740 JLINK_WriteReg(R14, 0x20000001)  returns 0x00 (0000ms, 0586ms total)
T472C 000:740 JLINK_WriteReg(R15 (PC), 0x20000092)  returns 0x00 (0000ms, 0586ms total)
T472C 000:740 JLINK_WriteReg(XPSR, 0x01000000)  returns 0x00 (0000ms, 0586ms total)
T472C 000:740 JLINK_WriteReg(MSP, 0x20000C00)  returns 0x00 (0000ms, 0586ms total)
T472C 000:740 JLINK_WriteReg(PSP, 0x20000C00)  returns 0x00 (0000ms, 0586ms total)
T472C 000:740 JLINK_WriteReg(CFBP, 0x00000000)  returns 0x00 (0000ms, 0586ms total)
T472C 000:740 JLINK_SetBPEx(Addr = 0x20000000, Type = 0xFFFFFFF2)  returns 0x00000008 (0000ms, 0586ms total)
T472C 000:740 JLINK_Go() -- CPU_ReadMem(4 bytes @ 0xE0001000) -- CPU_WriteMem(4 bytes @ 0xE0001000) (0005ms, 0591ms total)
T472C 000:745 JLINK_IsHalted() -- CPU_ReadMem(2 bytes @ 0x20000000)  returns TRUE (0004ms, 0595ms total)
T472C 000:749 JLINK_ReadReg(R15 (PC))  returns 0x20000000 (0000ms, 0591ms total)
T472C 000:749 JLINK_ClrBPEx(BPHandle = 0x00000008)  returns 0x00 (0000ms, 0591ms total)
T472C 000:749 JLINK_ReadReg(R0)  returns 0x00000001 (0000ms, 0591ms total)
T472C 000:749 JLINK_WriteReg(R0, 0x00003C00)  returns 0x00 (0000ms, 0591ms total)
T472C 000:749 JLINK_WriteReg(R1, 0x00000400)  returns 0x00 (0000ms, 0591ms total)
T472C 000:749 JLINK_WriteReg(R2, 0x000000FF)  returns 0x00 (0000ms, 0591ms total)
T472C 000:749 JLINK_WriteReg(R3, 0x00000000)  returns 0x00 (0000ms, 0591ms total)
T472C 000:749 JLINK_WriteReg(R4, 0x00000000)  returns 0x00 (0000ms, 0591ms total)
T472C 000:749 JLINK_WriteReg(R5, 0x00000000)  returns 0x00 (0000ms, 0591ms total)
T472C 000:749 JLINK_WriteReg(R6, 0x00000000)  returns 0x00 (0000ms, 0591ms total)
T472C 000:749 JLINK_WriteReg(R7, 0x00000000)  returns 0x00 (0000ms, 0591ms total)
T472C 000:749 JLINK_WriteReg(R8, 0x00000000)  returns 0x00 (0000ms, 0591ms total)
T472C 000:749 JLINK_WriteReg(R9, 0x20000560)  returns 0x00 (0000ms, 0591ms total)
T472C 000:749 JLINK_WriteReg(R10, 0x00000000)  returns 0x00 (0000ms, 0591ms total)
T472C 000:749 JLINK_WriteReg(R11, 0x00000000)  returns 0x00 (0000ms, 0591ms total)
T472C 000:749 JLINK_WriteReg(R12, 0x00000000)  returns 0x00 (0000ms, 0591ms total)
T472C 000:749 JLINK_WriteReg(R13 (SP), 0x20000C00)  returns 0x00 (0000ms, 0591ms total)
T472C 000:749 JLINK_WriteReg(R14, 0x20000001)  returns 0x00 (0000ms, 0591ms total)
T472C 000:749 JLINK_WriteReg(R15 (PC), 0x200000E8)  returns 0x00 (0000ms, 0591ms total)
T472C 000:749 JLINK_WriteReg(XPSR, 0x01000000)  returns 0x00 (0000ms, 0591ms total)
T472C 000:749 JLINK_WriteReg(MSP, 0x20000C00)  returns 0x00 (0000ms, 0591ms total)
T472C 000:749 JLINK_WriteReg(PSP, 0x20000C00)  returns 0x00 (0001ms, 0592ms total)
T472C 000:750 JLINK_WriteReg(CFBP, 0x00000000)  returns 0x00 (0000ms, 0592ms total)
T472C 000:750 JLINK_SetBPEx(Addr = 0x20000000, Type = 0xFFFFFFF2)  returns 0x00000009 (0000ms, 0592ms total)
T472C 000:750 JLINK_Go() -- CPU_ReadMem(4 bytes @ 0xE0001000) -- CPU_WriteMem(4 bytes @ 0xE0001000) (0006ms, 0598ms total)
T472C 000:756 JLINK_IsHalted()  returns FALSE (0001ms, 0599ms total)
T472C 000:759 JLINK_IsHalted()  returns FALSE (0000ms, 0598ms total)
T472C 000:762 JLINK_IsHalted()  returns FALSE (0001ms, 0599ms total)
T472C 000:765 JLINK_IsHalted() -- CPU_ReadMem(2 bytes @ 0x20000000)  returns TRUE (0003ms, 0601ms total)
T472C 000:768 JLINK_ReadReg(R15 (PC))  returns 0x20000000 (0000ms, 0598ms total)
T472C 000:768 JLINK_ClrBPEx(BPHandle = 0x00000009)  returns 0x00 (0000ms, 0598ms total)
T472C 000:768 JLINK_ReadReg(R0)  returns 0x00000000 (0000ms, 0598ms total)
T472C 000:769 JLINK_WriteReg(R0, 0x00004000)  returns 0x00 (0000ms, 0598ms total)
T472C 000:769 JLINK_WriteReg(R1, 0x00000400)  returns 0x00 (0000ms, 0598ms total)
T472C 000:769 JLINK_WriteReg(R2, 0x000000FF)  returns 0x00 (0000ms, 0598ms total)
T472C 000:769 JLINK_WriteReg(R3, 0x00000000)  returns 0x00 (0000ms, 0598ms total)
T472C 000:769 JLINK_WriteReg(R4, 0x00000000)  returns 0x00 (0000ms, 0598ms total)
T472C 000:769 JLINK_WriteReg(R5, 0x00000000)  returns 0x00 (0000ms, 0598ms total)
T472C 000:769 JLINK_WriteReg(R6, 0x00000000)  returns 0x00 (0000ms, 0598ms total)
T472C 000:769 JLINK_WriteReg(R7, 0x00000000)  returns 0x00 (0000ms, 0598ms total)
T472C 000:769 JLINK_WriteReg(R8, 0x00000000)  returns 0x00 (0000ms, 0598ms total)
T472C 000:769 JLINK_WriteReg(R9, 0x20000560)  returns 0x00 (0000ms, 0598ms total)
T472C 000:769 JLINK_WriteReg(R10, 0x00000000)  returns 0x00 (0000ms, 0598ms total)
T472C 000:769 JLINK_WriteReg(R11, 0x00000000)  returns 0x00 (0000ms, 0598ms total)
T472C 000:769 JLINK_WriteReg(R12, 0x00000000)  returns 0x00 (0000ms, 0598ms total)
T472C 000:769 JLINK_WriteReg(R13 (SP), 0x20000C00)  returns 0x00 (0000ms, 0598ms total)
T472C 000:769 JLINK_WriteReg(R14, 0x20000001)  returns 0x00 (0000ms, 0598ms total)
T472C 000:769 JLINK_WriteReg(R15 (PC), 0x20000092)  returns 0x00 (0000ms, 0598ms total)
T472C 000:769 JLINK_WriteReg(XPSR, 0x01000000)  returns 0x00 (0000ms, 0598ms total)
T472C 000:769 JLINK_WriteReg(MSP, 0x20000C00)  returns 0x00 (0000ms, 0598ms total)
T472C 000:769 JLINK_WriteReg(PSP, 0x20000C00)  returns 0x00 (0000ms, 0598ms total)
T472C 000:769 JLINK_WriteReg(CFBP, 0x00000000)  returns 0x00 (0000ms, 0598ms total)
T472C 000:769 JLINK_SetBPEx(Addr = 0x20000000, Type = 0xFFFFFFF2)  returns 0x0000000A (0000ms, 0598ms total)
T472C 000:769 JLINK_Go() -- CPU_ReadMem(4 bytes @ 0xE0001000) -- CPU_WriteMem(4 bytes @ 0xE0001000) (0006ms, 0604ms total)
T472C 000:775 JLINK_IsHalted() -- CPU_ReadMem(2 bytes @ 0x20000000)  returns TRUE (0004ms, 0608ms total)
T472C 000:779 JLINK_ReadReg(R15 (PC))  returns 0x20000000 (0000ms, 0604ms total)
T472C 000:779 JLINK_ClrBPEx(BPHandle = 0x0000000A)  returns 0x00 (0000ms, 0604ms total)
T472C 000:779 JLINK_ReadReg(R0)  returns 0x00000001 (0000ms, 0604ms total)
T472C 000:779 JLINK_WriteReg(R0, 0x00004000)  returns 0x00 (0000ms, 0604ms total)
T472C 000:779 JLINK_WriteReg(R1, 0x00000400)  returns 0x00 (0000ms, 0604ms total)
T472C 000:779 JLINK_WriteReg(R2, 0x000000FF)  returns 0x00 (0000ms, 0604ms total)
T472C 000:779 JLINK_WriteReg(R3, 0x00000000)  returns 0x00 (0000ms, 0604ms total)
T472C 000:779 JLINK_WriteReg(R4, 0x00000000)  returns 0x00 (0000ms, 0604ms total)
T472C 000:779 JLINK_WriteReg(R5, 0x00000000)  returns 0x00 (0000ms, 0604ms total)
T472C 000:779 JLINK_WriteReg(R6, 0x00000000)  returns 0x00 (0000ms, 0604ms total)
T472C 000:779 JLINK_WriteReg(R7, 0x00000000)  returns 0x00 (0000ms, 0604ms total)
T472C 000:779 JLINK_WriteReg(R8, 0x00000000)  returns 0x00 (0000ms, 0604ms total)
T472C 000:779 JLINK_WriteReg(R9, 0x20000560)  returns 0x00 (0000ms, 0604ms total)
T472C 000:779 JLINK_WriteReg(R10, 0x00000000)  returns 0x00 (0000ms, 0604ms total)
T472C 000:779 JLINK_WriteReg(R11, 0x00000000)  returns 0x00 (0000ms, 0604ms total)
T472C 000:779 JLINK_WriteReg(R12, 0x00000000)  returns 0x00 (0000ms, 0604ms total)
T472C 000:779 JLINK_WriteReg(R13 (SP), 0x20000C00)  returns 0x00 (0000ms, 0604ms total)
T472C 000:779 JLINK_WriteReg(R14, 0x20000001)  returns 0x00 (0000ms, 0604ms total)
T472C 000:779 JLINK_WriteReg(R15 (PC), 0x200000E8)  returns 0x00 (0000ms, 0604ms total)
T472C 000:779 JLINK_WriteReg(XPSR, 0x01000000)  returns 0x00 (0000ms, 0604ms total)
T472C 000:779 JLINK_WriteReg(MSP, 0x20000C00)  returns 0x00 (0000ms, 0604ms total)
T472C 000:779 JLINK_WriteReg(PSP, 0x20000C00)  returns 0x00 (0000ms, 0604ms total)
T472C 000:779 JLINK_WriteReg(CFBP, 0x00000000)  returns 0x00 (0000ms, 0604ms total)
T472C 000:779 JLINK_SetBPEx(Addr = 0x20000000, Type = 0xFFFFFFF2)  returns 0x0000000B (0000ms, 0604ms total)
T472C 000:779 JLINK_Go() -- CPU_ReadMem(4 bytes @ 0xE0001000) -- CPU_WriteMem(4 bytes @ 0xE0001000) (0006ms, 0610ms total)
T472C 000:785 JLINK_IsHalted()  returns FALSE (0001ms, 0611ms total)
T472C 000:788 JLINK_IsHalted()  returns FALSE (0001ms, 0611ms total)
T472C 000:791 JLINK_IsHalted()  returns FALSE (0000ms, 0610ms total)
T472C 000:793 JLINK_IsHalted() -- CPU_ReadMem(2 bytes @ 0x20000000)  returns TRUE (0004ms, 0614ms total)
T472C 000:797 JLINK_ReadReg(R15 (PC))  returns 0x20000000 (0000ms, 0610ms total)
T472C 000:797 JLINK_ClrBPEx(BPHandle = 0x0000000B)  returns 0x00 (0000ms, 0610ms total)
T472C 000:797 JLINK_ReadReg(R0)  returns 0x00000000 (0000ms, 0610ms total)
T472C 000:797 JLINK_WriteReg(R0, 0x00004400)  returns 0x00 (0000ms, 0610ms total)
T472C 000:797 JLINK_WriteReg(R1, 0x00000400)  returns 0x00 (0000ms, 0610ms total)
T472C 000:797 JLINK_WriteReg(R2, 0x000000FF)  returns 0x00 (0000ms, 0610ms total)
T472C 000:797 JLINK_WriteReg(R3, 0x00000000)  returns 0x00 (0000ms, 0610ms total)
T472C 000:797 JLINK_WriteReg(R4, 0x00000000)  returns 0x00 (0000ms, 0610ms total)
T472C 000:797 JLINK_WriteReg(R5, 0x00000000)  returns 0x00 (0000ms, 0610ms total)
T472C 000:797 JLINK_WriteReg(R6, 0x00000000)  returns 0x00 (0000ms, 0610ms total)
T472C 000:797 JLINK_WriteReg(R7, 0x00000000)  returns 0x00 (0000ms, 0610ms total)
T472C 000:797 JLINK_WriteReg(R8, 0x00000000)  returns 0x00 (0000ms, 0610ms total)
T472C 000:797 JLINK_WriteReg(R9, 0x20000560)  returns 0x00 (0000ms, 0610ms total)
T472C 000:797 JLINK_WriteReg(R10, 0x00000000)  returns 0x00 (0000ms, 0610ms total)
T472C 000:797 JLINK_WriteReg(R11, 0x00000000)  returns 0x00 (0000ms, 0610ms total)
T472C 000:797 JLINK_WriteReg(R12, 0x00000000)  returns 0x00 (0000ms, 0610ms total)
T472C 000:797 JLINK_WriteReg(R13 (SP), 0x20000C00)  returns 0x00 (0000ms, 0610ms total)
T472C 000:797 JLINK_WriteReg(R14, 0x20000001)  returns 0x00 (0000ms, 0610ms total)
T472C 000:797 JLINK_WriteReg(R15 (PC), 0x20000092)  returns 0x00 (0000ms, 0610ms total)
T472C 000:797 JLINK_WriteReg(XPSR, 0x01000000)  returns 0x00 (0000ms, 0610ms total)
T472C 000:797 JLINK_WriteReg(MSP, 0x20000C00)  returns 0x00 (0000ms, 0610ms total)
T472C 000:797 JLINK_WriteReg(PSP, 0x20000C00)  returns 0x00 (0000ms, 0610ms total)
T472C 000:797 JLINK_WriteReg(CFBP, 0x00000000)  returns 0x00 (0000ms, 0610ms total)
T472C 000:797 JLINK_SetBPEx(Addr = 0x20000000, Type = 0xFFFFFFF2)  returns 0x0000000C (0000ms, 0610ms total)
T472C 000:797 JLINK_Go() -- CPU_ReadMem(4 bytes @ 0xE0001000) -- CPU_WriteMem(4 bytes @ 0xE0001000) (0005ms, 0615ms total)
T472C 000:802 JLINK_IsHalted() -- CPU_ReadMem(2 bytes @ 0x20000000)  returns TRUE (0004ms, 0619ms total)
T472C 000:806 JLINK_ReadReg(R15 (PC))  returns 0x20000000 (0000ms, 0615ms total)
T472C 000:806 JLINK_ClrBPEx(BPHandle = 0x0000000C)  returns 0x00 (0000ms, 0615ms total)
T472C 000:806 JLINK_ReadReg(R0)  returns 0x00000001 (0000ms, 0615ms total)
T472C 000:806 JLINK_WriteReg(R0, 0x00004400)  returns 0x00 (0000ms, 0615ms total)
T472C 000:806 JLINK_WriteReg(R1, 0x00000400)  returns 0x00 (0000ms, 0615ms total)
T472C 000:806 JLINK_WriteReg(R2, 0x000000FF)  returns 0x00 (0000ms, 0615ms total)
T472C 000:806 JLINK_WriteReg(R3, 0x00000000)  returns 0x00 (0000ms, 0615ms total)
T472C 000:806 JLINK_WriteReg(R4, 0x00000000)  returns 0x00 (0000ms, 0615ms total)
T472C 000:806 JLINK_WriteReg(R5, 0x00000000)  returns 0x00 (0000ms, 0615ms total)
T472C 000:806 JLINK_WriteReg(R6, 0x00000000)  returns 0x00 (0000ms, 0615ms total)
T472C 000:806 JLINK_WriteReg(R7, 0x00000000)  returns 0x00 (0000ms, 0615ms total)
T472C 000:806 JLINK_WriteReg(R8, 0x00000000)  returns 0x00 (0000ms, 0615ms total)
T472C 000:806 JLINK_WriteReg(R9, 0x20000560)  returns 0x00 (0000ms, 0615ms total)
T472C 000:806 JLINK_WriteReg(R10, 0x00000000)  returns 0x00 (0000ms, 0615ms total)
T472C 000:806 JLINK_WriteReg(R11, 0x00000000)  returns 0x00 (0000ms, 0615ms total)
T472C 000:806 JLINK_WriteReg(R12, 0x00000000)  returns 0x00 (0000ms, 0615ms total)
T472C 000:806 JLINK_WriteReg(R13 (SP), 0x20000C00)  returns 0x00 (0000ms, 0615ms total)
T472C 000:806 JLINK_WriteReg(R14, 0x20000001)  returns 0x00 (0000ms, 0615ms total)
T472C 000:806 JLINK_WriteReg(R15 (PC), 0x200000E8)  returns 0x00 (0000ms, 0615ms total)
T472C 000:806 JLINK_WriteReg(XPSR, 0x01000000)  returns 0x00 (0000ms, 0615ms total)
T472C 000:806 JLINK_WriteReg(MSP, 0x20000C00)  returns 0x00 (0000ms, 0615ms total)
T472C 000:806 JLINK_WriteReg(PSP, 0x20000C00)  returns 0x00 (0000ms, 0615ms total)
T472C 000:806 JLINK_WriteReg(CFBP, 0x00000000)  returns 0x00 (0000ms, 0615ms total)
T472C 000:806 JLINK_SetBPEx(Addr = 0x20000000, Type = 0xFFFFFFF2)  returns 0x0000000D (0000ms, 0615ms total)
T472C 000:806 JLINK_Go() -- CPU_ReadMem(4 bytes @ 0xE0001000) -- CPU_WriteMem(4 bytes @ 0xE0001000) (0005ms, 0620ms total)
T472C 000:811 JLINK_IsHalted()  returns FALSE (0001ms, 0621ms total)
T472C 000:815 JLINK_IsHalted()  returns FALSE (0001ms, 0621ms total)
T472C 000:818 JLINK_IsHalted()  returns FALSE (0000ms, 0620ms total)
T472C 000:820 JLINK_IsHalted() -- CPU_ReadMem(2 bytes @ 0x20000000)  returns TRUE (0003ms, 0623ms total)
T472C 000:823 JLINK_ReadReg(R15 (PC))  returns 0x20000000 (0000ms, 0620ms total)
T472C 000:824 JLINK_ClrBPEx(BPHandle = 0x0000000D)  returns 0x00 (0000ms, 0620ms total)
T472C 000:824 JLINK_ReadReg(R0)  returns 0x00000000 (0000ms, 0620ms total)
T472C 000:824 JLINK_WriteReg(R0, 0x00004800)  returns 0x00 (0000ms, 0620ms total)
T472C 000:824 JLINK_WriteReg(R1, 0x00000400)  returns 0x00 (0000ms, 0620ms total)
T472C 000:824 JLINK_WriteReg(R2, 0x000000FF)  returns 0x00 (0000ms, 0620ms total)
T472C 000:824 JLINK_WriteReg(R3, 0x00000000)  returns 0x00 (0000ms, 0620ms total)
T472C 000:824 JLINK_WriteReg(R4, 0x00000000)  returns 0x00 (0000ms, 0620ms total)
T472C 000:824 JLINK_WriteReg(R5, 0x00000000)  returns 0x00 (0000ms, 0620ms total)
T472C 000:824 JLINK_WriteReg(R6, 0x00000000)  returns 0x00 (0000ms, 0620ms total)
T472C 000:824 JLINK_WriteReg(R7, 0x00000000)  returns 0x00 (0000ms, 0620ms total)
T472C 000:824 JLINK_WriteReg(R8, 0x00000000)  returns 0x00 (0000ms, 0620ms total)
T472C 000:824 JLINK_WriteReg(R9, 0x20000560)  returns 0x00 (0000ms, 0620ms total)
T472C 000:824 JLINK_WriteReg(R10, 0x00000000)  returns 0x00 (0000ms, 0620ms total)
T472C 000:824 JLINK_WriteReg(R11, 0x00000000)  returns 0x00 (0000ms, 0620ms total)
T472C 000:824 JLINK_WriteReg(R12, 0x00000000)  returns 0x00 (0000ms, 0620ms total)
T472C 000:824 JLINK_WriteReg(R13 (SP), 0x20000C00)  returns 0x00 (0000ms, 0620ms total)
T472C 000:824 JLINK_WriteReg(R14, 0x20000001)  returns 0x00 (0000ms, 0620ms total)
T472C 000:824 JLINK_WriteReg(R15 (PC), 0x20000092)  returns 0x00 (0000ms, 0620ms total)
T472C 000:824 JLINK_WriteReg(XPSR, 0x01000000)  returns 0x00 (0000ms, 0620ms total)
T472C 000:824 JLINK_WriteReg(MSP, 0x20000C00)  returns 0x00 (0000ms, 0620ms total)
T472C 000:824 JLINK_WriteReg(PSP, 0x20000C00)  returns 0x00 (0000ms, 0620ms total)
T472C 000:824 JLINK_WriteReg(CFBP, 0x00000000)  returns 0x00 (0000ms, 0620ms total)
T472C 000:824 JLINK_SetBPEx(Addr = 0x20000000, Type = 0xFFFFFFF2)  returns 0x0000000E (0000ms, 0620ms total)
T472C 000:824 JLINK_Go() -- CPU_ReadMem(4 bytes @ 0xE0001000) -- CPU_WriteMem(4 bytes @ 0xE0001000) (0005ms, 0625ms total)
T472C 000:829 JLINK_IsHalted() -- CPU_ReadMem(2 bytes @ 0x20000000)  returns TRUE (0004ms, 0629ms total)
T472C 000:833 JLINK_ReadReg(R15 (PC))  returns 0x20000000 (0000ms, 0625ms total)
T472C 000:833 JLINK_ClrBPEx(BPHandle = 0x0000000E)  returns 0x00 (0000ms, 0625ms total)
T472C 000:833 JLINK_ReadReg(R0)  returns 0x00000001 (0000ms, 0625ms total)
T472C 000:833 JLINK_WriteReg(R0, 0x00004800)  returns 0x00 (0001ms, 0626ms total)
T472C 000:834 JLINK_WriteReg(R1, 0x00000400)  returns 0x00 (0000ms, 0626ms total)
T472C 000:834 JLINK_WriteReg(R2, 0x000000FF)  returns 0x00 (0000ms, 0626ms total)
T472C 000:834 JLINK_WriteReg(R3, 0x00000000)  returns 0x00 (0000ms, 0626ms total)
T472C 000:834 JLINK_WriteReg(R4, 0x00000000)  returns 0x00 (0000ms, 0626ms total)
T472C 000:834 JLINK_WriteReg(R5, 0x00000000)  returns 0x00 (0000ms, 0626ms total)
T472C 000:834 JLINK_WriteReg(R6, 0x00000000)  returns 0x00 (0000ms, 0626ms total)
T472C 000:834 JLINK_WriteReg(R7, 0x00000000)  returns 0x00 (0000ms, 0626ms total)
T472C 000:834 JLINK_WriteReg(R8, 0x00000000)  returns 0x00 (0000ms, 0626ms total)
T472C 000:834 JLINK_WriteReg(R9, 0x20000560)  returns 0x00 (0000ms, 0626ms total)
T472C 000:834 JLINK_WriteReg(R10, 0x00000000)  returns 0x00 (0000ms, 0626ms total)
T472C 000:834 JLINK_WriteReg(R11, 0x00000000)  returns 0x00 (0000ms, 0626ms total)
T472C 000:834 JLINK_WriteReg(R12, 0x00000000)  returns 0x00 (0000ms, 0626ms total)
T472C 000:834 JLINK_WriteReg(R13 (SP), 0x20000C00)  returns 0x00 (0000ms, 0626ms total)
T472C 000:834 JLINK_WriteReg(R14, 0x20000001)  returns 0x00 (0000ms, 0626ms total)
T472C 000:834 JLINK_WriteReg(R15 (PC), 0x200000E8)  returns 0x00 (0000ms, 0626ms total)
T472C 000:834 JLINK_WriteReg(XPSR, 0x01000000)  returns 0x00 (0000ms, 0626ms total)
T472C 000:834 JLINK_WriteReg(MSP, 0x20000C00)  returns 0x00 (0000ms, 0626ms total)
T472C 000:834 JLINK_WriteReg(PSP, 0x20000C00)  returns 0x00 (0000ms, 0626ms total)
T472C 000:834 JLINK_WriteReg(CFBP, 0x00000000)  returns 0x00 (0000ms, 0626ms total)
T472C 000:834 JLINK_SetBPEx(Addr = 0x20000000, Type = 0xFFFFFFF2)  returns 0x0000000F (0000ms, 0626ms total)
T472C 000:834 JLINK_Go() -- CPU_ReadMem(4 bytes @ 0xE0001000) -- CPU_WriteMem(4 bytes @ 0xE0001000) (0005ms, 0631ms total)
T472C 000:839 JLINK_IsHalted()  returns FALSE (0001ms, 0632ms total)
T472C 000:842 JLINK_IsHalted()  returns FALSE (0001ms, 0632ms total)
T472C 000:845 JLINK_IsHalted()  returns FALSE (0000ms, 0631ms total)
T472C 000:847 JLINK_IsHalted() -- CPU_ReadMem(2 bytes @ 0x20000000)  returns TRUE (0004ms, 0635ms total)
T472C 000:851 JLINK_ReadReg(R15 (PC))  returns 0x20000000 (0000ms, 0631ms total)
T472C 000:851 JLINK_ClrBPEx(BPHandle = 0x0000000F)  returns 0x00 (0000ms, 0631ms total)
T472C 000:851 JLINK_ReadReg(R0)  returns 0x00000000 (0000ms, 0631ms total)
T472C 000:851 JLINK_WriteReg(R0, 0x00004C00)  returns 0x00 (0000ms, 0631ms total)
T472C 000:851 JLINK_WriteReg(R1, 0x00000400)  returns 0x00 (0000ms, 0631ms total)
T472C 000:851 JLINK_WriteReg(R2, 0x000000FF)  returns 0x00 (0000ms, 0631ms total)
T472C 000:851 JLINK_WriteReg(R3, 0x00000000)  returns 0x00 (0000ms, 0631ms total)
T472C 000:851 JLINK_WriteReg(R4, 0x00000000)  returns 0x00 (0000ms, 0631ms total)
T472C 000:851 JLINK_WriteReg(R5, 0x00000000)  returns 0x00 (0000ms, 0631ms total)
T472C 000:851 JLINK_WriteReg(R6, 0x00000000)  returns 0x00 (0000ms, 0631ms total)
T472C 000:851 JLINK_WriteReg(R7, 0x00000000)  returns 0x00 (0000ms, 0631ms total)
T472C 000:851 JLINK_WriteReg(R8, 0x00000000)  returns 0x00 (0000ms, 0631ms total)
T472C 000:851 JLINK_WriteReg(R9, 0x20000560)  returns 0x00 (0000ms, 0631ms total)
T472C 000:851 JLINK_WriteReg(R10, 0x00000000)  returns 0x00 (0000ms, 0631ms total)
T472C 000:851 JLINK_WriteReg(R11, 0x00000000)  returns 0x00 (0000ms, 0631ms total)
T472C 000:851 JLINK_WriteReg(R12, 0x00000000)  returns 0x00 (0000ms, 0631ms total)
T472C 000:851 JLINK_WriteReg(R13 (SP), 0x20000C00)  returns 0x00 (0000ms, 0631ms total)
T472C 000:851 JLINK_WriteReg(R14, 0x20000001)  returns 0x00 (0000ms, 0631ms total)
T472C 000:851 JLINK_WriteReg(R15 (PC), 0x20000092)  returns 0x00 (0000ms, 0631ms total)
T472C 000:851 JLINK_WriteReg(XPSR, 0x01000000)  returns 0x00 (0000ms, 0631ms total)
T472C 000:851 JLINK_WriteReg(MSP, 0x20000C00)  returns 0x00 (0000ms, 0631ms total)
T472C 000:851 JLINK_WriteReg(PSP, 0x20000C00)  returns 0x00 (0000ms, 0631ms total)
T472C 000:851 JLINK_WriteReg(CFBP, 0x00000000)  returns 0x00 (0000ms, 0631ms total)
T472C 000:851 JLINK_SetBPEx(Addr = 0x20000000, Type = 0xFFFFFFF2)  returns 0x00000010 (0000ms, 0631ms total)
T472C 000:851 JLINK_Go() -- CPU_ReadMem(4 bytes @ 0xE0001000) -- CPU_WriteMem(4 bytes @ 0xE0001000) (0006ms, 0637ms total)
T472C 000:857 JLINK_IsHalted() -- CPU_ReadMem(2 bytes @ 0x20000000)  returns TRUE (0004ms, 0641ms total)
T472C 000:861 JLINK_ReadReg(R15 (PC))  returns 0x20000000 (0000ms, 0637ms total)
T472C 000:861 JLINK_ClrBPEx(BPHandle = 0x00000010)  returns 0x00 (0000ms, 0637ms total)
T472C 000:861 JLINK_ReadReg(R0)  returns 0x00000001 (0000ms, 0637ms total)
T472C 000:861 JLINK_WriteReg(R0, 0x00004C00)  returns 0x00 (0000ms, 0637ms total)
T472C 000:861 JLINK_WriteReg(R1, 0x00000400)  returns 0x00 (0000ms, 0637ms total)
T472C 000:861 JLINK_WriteReg(R2, 0x000000FF)  returns 0x00 (0000ms, 0637ms total)
T472C 000:861 JLINK_WriteReg(R3, 0x00000000)  returns 0x00 (0000ms, 0637ms total)
T472C 000:861 JLINK_WriteReg(R4, 0x00000000)  returns 0x00 (0000ms, 0637ms total)
T472C 000:861 JLINK_WriteReg(R5, 0x00000000)  returns 0x00 (0000ms, 0637ms total)
T472C 000:861 JLINK_WriteReg(R6, 0x00000000)  returns 0x00 (0000ms, 0637ms total)
T472C 000:861 JLINK_WriteReg(R7, 0x00000000)  returns 0x00 (0000ms, 0637ms total)
T472C 000:861 JLINK_WriteReg(R8, 0x00000000)  returns 0x00 (0000ms, 0637ms total)
T472C 000:861 JLINK_WriteReg(R9, 0x20000560)  returns 0x00 (0000ms, 0637ms total)
T472C 000:861 JLINK_WriteReg(R10, 0x00000000)  returns 0x00 (0000ms, 0637ms total)
T472C 000:861 JLINK_WriteReg(R11, 0x00000000)  returns 0x00 (0000ms, 0637ms total)
T472C 000:861 JLINK_WriteReg(R12, 0x00000000)  returns 0x00 (0000ms, 0637ms total)
T472C 000:861 JLINK_WriteReg(R13 (SP), 0x20000C00)  returns 0x00 (0000ms, 0637ms total)
T472C 000:861 JLINK_WriteReg(R14, 0x20000001)  returns 0x00 (0000ms, 0637ms total)
T472C 000:861 JLINK_WriteReg(R15 (PC), 0x200000E8)  returns 0x00 (0000ms, 0637ms total)
T472C 000:861 JLINK_WriteReg(XPSR, 0x01000000)  returns 0x00 (0000ms, 0637ms total)
T472C 000:861 JLINK_WriteReg(MSP, 0x20000C00)  returns 0x00 (0000ms, 0637ms total)
T472C 000:861 JLINK_WriteReg(PSP, 0x20000C00)  returns 0x00 (0001ms, 0638ms total)
T472C 000:862 JLINK_WriteReg(CFBP, 0x00000000)  returns 0x00 (0000ms, 0638ms total)
T472C 000:862 JLINK_SetBPEx(Addr = 0x20000000, Type = 0xFFFFFFF2)  returns 0x00000011 (0000ms, 0638ms total)
T472C 000:862 JLINK_Go() -- CPU_ReadMem(4 bytes @ 0xE0001000) -- CPU_WriteMem(4 bytes @ 0xE0001000) (0005ms, 0643ms total)
T472C 000:867 JLINK_IsHalted()  returns FALSE (0002ms, 0645ms total)
T472C 000:871 JLINK_IsHalted()  returns FALSE (0001ms, 0644ms total)
T472C 000:874 JLINK_IsHalted()  returns FALSE (0001ms, 0644ms total)
T472C 000:877 JLINK_IsHalted() -- CPU_ReadMem(2 bytes @ 0x20000000)  returns TRUE (0003ms, 0646ms total)
T472C 000:880 JLINK_ReadReg(R15 (PC))  returns 0x20000000 (0000ms, 0643ms total)
T472C 000:880 JLINK_ClrBPEx(BPHandle = 0x00000011)  returns 0x00 (0000ms, 0643ms total)
T472C 000:880 JLINK_ReadReg(R0)  returns 0x00000000 (0000ms, 0643ms total)
T472C 000:881 JLINK_WriteReg(R0, 0x00005000)  returns 0x00 (0000ms, 0643ms total)
T472C 000:881 JLINK_WriteReg(R1, 0x00000400)  returns 0x00 (0000ms, 0643ms total)
